Speed,Torque,Ia magnitude,Ia phase,Ib magnitude,Ib phase,Ic magnitude,Ic phase,Vab magnitude,Vab phase,Vac magnitude,Vac phase,Vca magnitude,Vca phase,I beta magnitude,I beta phase,I alpha magnitude,I alpha phase,V beta magnitude,V beta phase,V alpha magnitude,V alpha phase,Iq ,Id ,Vq ,Vd 
146.025429922998,24.1702957489389,16.2938174846583,132.776935868372,15.8578486814829,15.2896854726011,16.686645189782,-104.686903933486,355.239841698335,-168.449900940924,373.70254225927,71.9188237713197,366.847912266775,-50.7589256927122,16.2938174846584,132.776935868371,16.2720875198968,46.1441547202791,0.540553955396238,159.033777316722,0.566157315291503,71.1553965779677,6.00600357630649,15.2898653056874,-18.67151109377,180.148582452091
37.2197314885441,6.16065241683305,2.86446204777707,2.12172103717738,1.25709082655567,-148.000423308085,1.88171072698386,162.683237845566,22.1555224271123,133.118618879687,64.463507838973,-4.33060808038805,50.4195347954231,-167.043675734397,2.86446204777698,2.12172103716589,0.82403122703074,-59.2223776180712,0.0384667981215064,38.1150009262345,0.0979973246930734,-4.17699428659166,5.99319529342464,1.1186160341381,18.4454933931177,68.9239608404623
60.9297982321772,10.0851697130525,2.13773369763604,62.3333918172692,3.74889963733702,-20.2684334638983,4.54840870119446,-172.488075363433,142.316434072393,170.533072141184,125.783514925315,17.5714274238742,64.702573979527,-71.5624282506686,2.13773369763598,62.3333918172694,4.65168912137728,-5.01323576152772,0.158414721349807,151.908050883882,0.191261569416203,17.3906895306351,6.00808720210682,2.40678904969958,31.4394777576584,98.9496981295101
44.9934506084824,7.44736727394507,2.93644292464496,-168.569355875657,1.06912664087452,103.79228170167,3.16614272467122,-8.28717265710026,58.5589909360072,-23.1675155075898,93.8235963967004,-178.532265906766,47.3683561689928,32.4864029575666,2.93644292464481,-168.56935587566,2.13793404986611,156.19461612327,0.0443966217136635,-75.162747576552,0.142000556850126,-178.479347824237,6.00269396306405,1.44369367954942,22.2047006648385,80.3059820631714
23.5726577010738,3.9017731947367,1.25851063890968,-9.85808184621597,1.81163662580048,-178.096328855711,0.633790239109236,25.7802651546371,18.2598621788087,10.9285757681313,11.0735213327917,-22.0510614420033,28.2007749516628,178.586673710962,1.25851063890968,-9.8580818462119,1.38847465875663,-171.972783464827,0.0405644316042294,3.7711737079145,0.0166473251972891,-21.8415017216274,5.99822168302039,0.664370564538891,11.7972856665012,45.159952338789
30.8243642745655,5.10208393964082,2.31108188309391,-176.49559017801,0.734532575260477,40.9066363426395,1.78425808552017,-10.9762694326081,21.0940575141772,-24.8059750185246,47.1899623674764,178.709824982216,29.0918656297096,15.5264809831208,2.31108188309402,-176.495590178016,0.837681436937263,145.551871411188,0.0166659347576209,-119.326588020579,0.0714881554469013,179.15930086428,5.99756103209671,0.903156739220562,14.9113649783681,57.5348935711003
16.4617856659715,2.72477354329302,0.828445650507729,7.57997280270237,0.478750614153454,-15.9707388881748,1.28167498068846,178.996512446187,12.3964816688749,176.369057659834,12.4371739662591,3.55682408936503,1.55720184931988,-91.5315190161391,0.828445650507672,7.57997280271064,1.00953184158262,-5.05841125444422,0.0110613224125101,169.035693401984,0.0189720507548765,3.24397186729559,6.00046616983748,0.456317604045175,9.41916851288455,31.76753330002
55.9985394014428,9.26894212573252,2.58501939194646,147.200947915062,4.32819143232074,0.0497369554697936,2.57227634337822,-146.918017384983,124.588617439565,-170.58428075571,52.042808658549,73.9458932824347,112.490554179107,-15.2723776096499,2.58501939194653,147.200947915063,3.83046420451675,12.2508788826151,0.202624569438448,177.621733164547,0.0790040253461834,73.3306095043416,5.98304101183711,2.02665762748941,30.5761553371713,94.5493834212149
103.37233722605,17.1103071864277,8.42322610811535,81.8997330132399,10.4300695853592,-28.1949552962602,10.9255689117926,-161.806497877314,244.561470091669,148.380207442189,263.761102290688,15.1745039223129,202.623663429125,-103.211606885058,8.42322610811542,81.8997330132398,11.3336972069287,-4.43112560811815,0.317657135662842,115.710421699125,0.400295788822388,14.6789480463203,5.97902576614358,9.33979659877345,15.7546790340875,129.405723537938
78.1343230605619,12.9328822898366,4.41447485217355,50.7706668846227,5.0773110008301,-36.4110318667027,6.88990428496816,-176.623576736319,151.757679169777,147.304178502216,196.31857351915,5.46935884612451,121.339012612313,-123.920968743684,4.41447485217285,50.7706668846165,6.50671826883252,-13.3800515990443,0.167340653522044,107.506233829672,0.298072250628866,5.21336940696643,6.00865195160992,4.9404680942568,30.940459165666,106.134277434145
17.8384783302451,2.95264528363601,0.200228715913413,-55.4262852189056,1.27264748525387,176.801850498481,1.16084378550568,4.63808910534995,16.2267157705829,1.67477781115295,5.00937974000942,-157.87392331681,11.6651442496519,173.045063306052,0.200228715913345,-55.4262852188555,1.40169995522885,-179.460323802103,0.0241291051054179,-2.07320507285069,0.0076003329569157,-157.847318305404,6.0004485416131,0.497150186699643,9.81747458659124,34.2895642417611
103.366143962358,17.1092820703561,8.40184948053956,-84.3865672602172,10.8566060807366,160.331658917705,10.5140885548082,26.5982784777626,255.622208994642,-22.8284182675507,254.951042326829,-156.659820293891,200.189085379558,90.4325933549121,8.4018494805401,-84.3865672602168,11.3465535555599,-176.927346460962,0.333470677541493,-52.2875057902892,0.387221001598727,-157.20352325377,6.00441599865095,9.34886534526714,13.9073589129779,129.678065402536
131.123772877658,21.7037564747519,14.6509855923554,-31.4988718605225,14.7150505548449,-154.052568553389,14.1127794866661,86.9961890572677,334.197934812526,21.891897325865,319.912546850461,-97.4156534369899,330.702196422939,144.37452458635,14.6509855923551,-31.4988718605226,14.3382371826101,-124.233941001703,0.509872288079411,-7.35900480341592,0.48474514255412,-98.2013753124344,6.00224661648368,13.2404845200298,-6.02422318040467,166.500161650603
127.083894244331,21.035071154607,14.3652740371906,-18.2186724965422,14.0104237732471,-142.089837565847,13.3534149776324,101.189407422482,320.493293185671,33.7006379565419,302.916143024228,-83.4702206374512,325.283696438765,157.758376787581,14.3652740371905,-18.2186724965415,13.4517685773777,-111.297787954845,0.499154668785863,4.92447011221241,0.458987880707692,-84.2558805269788,5.99945124686528,12.742632224038,-2.90510106346106,157.895960306604
87.2450214465329,14.4408954803091,6.16677592562292,131.565393350084,8.56782194019313,-0.914447931287895,6.33035261357294,-134.987168047774,223.212204384548,178.550498306661,166.245745243664,44.0370337364928,159.468193209865,-49.4707176497008,6.16677592562268,131.565393350086,7.93584166309626,18.4079744325687,0.305996380247177,158.405725746994,0.253258729128686,43.5004577289031,6.00911256462777,6.68007458910268,24.6831167295984,113.176932700707
145.784021522114,24.1303375550221,15.8247439592427,-167.161823096718,16.6267707951183,73.0859072056308,16.3012430279153,-49.4769433059622,372.53096127238,-110.330036649295,367.239001422421,126.98836637925,354.823164885183,9.07902581671002,15.824743959243,-167.161823096717,16.6727076513436,101.494135696898,0.549158260114924,-140.583544307568,0.556605432812038,126.2078448314,6.01329517389845,15.249162215061,-18.9607702443505,180.251426301277
63.9391874952921,10.5832872570414,4.67114009650939,169.281543853141,4.24086233936586,17.4991392381618,2.21214084858413,-75.7362315195567,111.171475049694,-149.866760994459,90.512083316257,135.23562705672,160.607985947731,-2.82958232239911,4.67114009650925,169.281543853134,2.82473663843715,44.3340068598411,0.228837173278522,-169.63883083043,0.136569143811648,134.780833174394,5.99609752903677,2.68453887201973,33.5877453929933,101.11166238136
44.1570729856079,7.30892909565425,1.0063621080794,85.7483012061782,2.96689770308739,-10.1594462526434,3.033251232888,-170.889783906644,91.1318369425804,179.967184532003,51.2027062000181,26.7920397946573,50.9763966333423,-26.9863711931747,1.00636210807969,85.7483012061667,3.41532943029155,-0.417051206540957,0.120612309593321,170.35197987759,0.0783716835542711,26.8207817356087,6.00325878431944,1.40792338249402,21.6803513787308,79.0267848222384
103.740891201974,17.1713106609747,10.4605211961512,151.123744435087,11.0074284516586,17.7196153574571,8.50568573512422,-98.9639563655633,265.391159606194,-165.298230484826,204.447485768021,75.914148414845,244.894409601181,-32.3241509779856,10.4605211961515,151.123744435082,9.61938733653786,44.8577731279222,0.409234735188874,171.694953723046,0.310478147975261,75.1605324965095,5.97735066558174,9.31594222855468,15.8310115356229,135.384119410476
146.315321916013,24.218279002336,16.6141057905453,-65.7348441658025,15.8068451317133,175.328720260489,16.4850403275452,57.2143666815374,355.15771192785,-8.46706324516396,368.770287779148,-126.25602895975,374.174199637138,110.853432675847,16.6141057905457,-65.7348441658042,15.9916363975872,-153.007095768527,0.55082918722901,-40.457616666882,0.558324341522521,-127.056576736881,6.03659740811751,15.305581485264,-20.9461765758132,183.332855898622
39.9658450170453,6.61519226087965,1.29494206577462,-36.578589468712,3.05581165422179,177.227096127035,2.10682723968432,17.2242025869841,70.8299076699898,6.40657535755221,22.2108602093501,-115.191691208275,62.1419110123337,168.682625224318,1.2949420657749,-36.5785894687274,2.936922244698,-174.630498790076,0.11492168791311,-2.23321520957509,0.0336878464927677,-115.304426416377,5.99840844914082,1.22601869009893,19.5284641733328,73.1859316011929
33.447863982509,5.53632860422895,0.833256083588829,-42.1218732296705,2.51026045021695,176.310566531525,1.92839512653839,11.890859863054,52.1113774872382,4.58728959892703,15.4882603863696,-128.947949363606,42.937162132466,169.427982985046,0.833256083588337,-42.1218732296228,2.53941692015936,-176.926730077668,0.0822714123811917,-2.66331961739488,0.0235218886642684,-128.958240652091,6.0022326742787,0.987437894286903,15.7763764637221,62.4261526935612
127.324226815259,21.0748512759222,14.4896154731076,8.42151391791987,13.5083535952292,-112.505626989725,13.8287291593306,131.497444033091,308.489482771786,62.9482414584314,312.424244654367,-52.8869462093724,329.807992016861,-175.548536776618,14.4896154731074,8.4215139179214,13.3849390170844,-80.0844898086836,0.487542042001844,31.8901622988245,0.473267105375593,-53.6351990878779,6.01839306683552,12.7357590003453,-4.17617104332204,162.132759360608
42.444091369393,7.02539442434227,3.14653214594205,-174.895200459797,1.15261512863326,51.9349241990586,2.50332127982057,-14.5168723206429,36.3766929067903,-38.324140054742,83.7570982619831,177.019961051032,58.0344802103353,18.2800155766782,3.14653214594224,-174.895200459794,1.32785711882824,138.13335980794,0.0428722542635311,-124.180354876319,0.126964743670096,177.18869050139,6.00251813729165,1.33808504267698,20.7518921729639,76.2516184575411
59.2316478257487,9.80408992050406,2.0770953652514,58.4504849176836,3.55167154798132,-20.7512527828273,4.43767286503575,-173.378880414437,136.589368514627,170.716552858754,120.895639305619,16.9726008668623,60.4460768253699,-71.5094109516608,2.07709536525189,58.4504849176897,4.48331340741405,-5.51813204509779,0.150888414469314,152.489545706394,0.183788622606836,16.7633183548202,6.00773146994263,2.26689698235233,30.5876026745571,97.6020755766215
92.6727174315272,15.3392939117454,7.17396793921375,-130.371399218884,7.27098515203464,132.365515960192,9.54693001822603,0.5600918752167,179.077834013223,-50.3141162868726,239.397622297438,179.029080375501,183.076883846026,46.9358177223862,7.17396793921236,-130.37139921889,8.87987199072962,159.926560977055,0.238187340395109,-93.0721757819749,0.362908143070198,178.710756307353,6.01499312818308,7.60808623667052,20.4958127612233,120.190031138451
105.803854537066,17.51277470566,8.9081208792028,95.98565882806,11.2712100968623,-19.8103809386506,10.9090912179739,-152.485855271523,263.375593089242,156.831705907948,262.342152570223,24.0402972564218,210.508838700702,-89.3062521191097,8.9081208792018,95.9856588280618,11.7294824964082,3.44200310213045,0.347742313849463,127.234954502746,0.398426431846945,23.4829339898204,6.00761769877108,9.71809618155358,11.992147442698,132.724269345323
103.941272650473,17.2044780269286,9.1326806527558,-57.1117292870763,11.4373597058744,176.766918287627,9.5429876975674,47.394554162983,271.611065495159,-6.13574973016125,231.939738170988,-136.695817551576,213.637869674799,118.295163500341,9.13268065275533,-57.1117292870757,10.9598930434209,-160.364754570426,0.375233805570352,-30.7885427611005,0.352826812592102,-137.296816137011,6.0063734170639,9.40195331347218,13.3432772096603,132.844730146022
58.3744078938654,9.66219858902609,3.0284785613663,28.0458023098316,2.43592672624245,-41.5928236806812,4.49878153638854,177.539624614825,109.38905408179,159.127326772146,138.372465656753,6.271154562455,64.6078023327082,-123.154709161751,3.02847856136653,28.0458023098455,3.79358521097966,-15.9913613688891,0.0999131281584573,125.154488879246,0.210051494164703,6.17230492310738,5.98475425096407,2.19323400704173,31.7805212959327,96.9501823427513
136.367388783464,22.5716857614795,15.1010188725184,87.0708777966255,15.2274938172486,-32.5843485184553,15.243604499646,-153.167711666828,343.212136107656,143.419921614648,344.021656072606,22.8467489465794,340.636410054134,-96.9849244839543,15.1010188725175,87.070877796626,15.2801322115126,-2.85874519584091,0.516895855020777,112.585713633925,0.52137576180041,22.0954465667784,6.00385018382635,13.9995820228611,-10.4904403973021,168.89479808354
134.862489928543,22.3225931862009,15.059799535386,34.01138755721,14.8260305280484,-85.2556584625276,15.1095010488052,155.14273398418,334.640531232532,90.582517663402,340.71216522596,-28.868115009585,340.516789700697,-150.025123977327,15.0597995353864,34.0113875572111,14.9378584395363,-54.7407012280061,0.510263165432912,59.2397864990622,0.515934886551602,-29.5758772126007,5.98688127618866,13.7949652607106,-8.04092508040807,166.44212332865
131.848296661891,21.8236804780661,14.5503114410546,-47.2020438028405,14.9061619829789,-169.052395945005,14.3177925325627,70.6281143378621,337.694532709812,6.94748434285401,324.767834117111,-113.693782205415,328.207684567449,128.587821531757,14.550311441055,-47.2020438028418,14.6364172882231,-139.873828373746,0.508580341304947,-22.5286180161651,0.49209032843969,-114.472432213276,6.02871679992234,13.372504846557,-8.50548209410305,166.425060750225
51.9437868411209,8.59779485622318,3.33804114238215,14.1539220884804,1.44553331353997,-72.7229917835193,3.70915832920295,171.252847782518,73.3260202025374,151.652434110099,119.467126897492,0.921151843058176,66.0733050701135,-146.219924996345,3.33804114238169,14.1539220884667,2.61739854786433,-25.3974124768888,0.0634871746528698,96.6838292454289,0.181057492221645,0.887173545479128,6.00050867657004,1.78717577323785,26.6755204415411,89.7308556725604
127.706638794717,21.1381485430236,13.4780068871525,-78.428013798625,14.4382276363282,162.075839638013,14.0887212337086,38.4487411366807,326.766719935322,-21.9245503911272,322.009955825084,-145.745958806991,305.503420875161,96.9518024096757,13.4780068871539,-78.4280137986259,14.5172575108485,-170.113886890285,0.475826546166115,-52.0780757855001,0.48867178445874,-146.386919547856,5.97880805774054,12.7437409807677,-1.61673465626531,163.556293159157
29.3772902557361,4.8625625971996,1.8338568430268,-8.66966893766102,2.13596630716693,-175.499516860535,0.545275241096731,54.5213438763506,23.0852580140181,18.3735040738587,22.6639794401488,-18.8430950343826,43.3577762425386,179.94284742585,1.83385684302612,-8.66966893766427,1.45560106566527,-165.95991132085,0.0574358265777587,6.69312505953222,0.0338859128571588,-18.7758166698867,6.00090028997211,0.846704552245984,14.0158322681385,55.6586962538974
42.8318165210253,7.08957113376333,2.40488367496436,16.3059447614283,1.28462725342093,-44.7795872787015,3.22818578937966,175.920459555851,66.0881615099563,165.550951079818,82.6011144988695,5.23086385529094,30.1729575762884,-127.240028180254,2.40488367496451,16.3059447614327,2.47382536784942,-15.3538489837062,0.053603448734417,137.852170122065,0.124973069539585,5.04918822076785,6.0011980656044,1.34915686969573,20.990647284324,77.1659470539602
135.463331449998,22.4220451602815,14.9370325570732,-84.3296066172925,15.1687091604707,155.962680970935,15.1206515553963,35.057372141252,342.000025711551,-28.0354640056367,341.662209340817,-148.964692832448,337.018942759756,91.5498898129798,14.9370325570722,-84.3296066172933,15.2132917816216,-174.541505030275,0.51310788748773,-58.7534959752701,0.51795616104774,-149.68667042188,5.98134083940303,13.8744116095032,-8.08984516088394,166.916546019388
20.0156235918121,3.3130088510518,1.29593252212037,-174.724642925983,0.249060650703358,123.753143956725,1.4315283449784,-3.52145382686461,14.7107883131265,-7.66350971811658,20.2064567783557,-178.048905320577,6.20911425896341,25.2612388176101,1.29593252211885,-174.724642925878,0.920718581418475,169.339554996765,0.00873251099329492,-27.9692748640325,0.0304101272164566,-178.203363182313,6.00063256888464,0.561079075313371,10.4483333255129,38.3526856834736
95.0921407987769,15.7397596276085,9.85642246569581,171.912330482302,8.33354992088347,36.9275239176523,7.10393227449812,-64.1576174643725,210.001153583389,-145.742043051755,173.1138104872,112.08091136101,242.347483652422,-10.0287140337885,9.85642246569763,171.912330482297,6.89634570543519,72.6339959245011,0.367479188192006,-169.933836064667,0.261375557325212,111.37224608172,6.01260559279184,7.99894637604782,19.0653387448808,123.588150267515
85.4275239156192,14.1400612155628,6.87115001550104,-29.6047687326126,8.02215888430443,-169.966212355238,5.16443779518942,68.1114591499395,212.513150883717,9.9281918256557,136.933670476505,-112.189226921697,181.576612023269,150.231435602921,6.8711500155001,-29.6047687326153,6.70423247596542,-147.788148592048,0.324260700461567,-8.57687137919335,0.208304517113342,-112.895824062197,6.00377916896589,6.32659956504982,26.2921325070987,112.798068053042
72.5517592760586,12.0088499635499,4.26966659718278,-145.39308514034,3.67747623458266,132.364305269882,5.99938729539366,-2.79235057209799,126.81753694131,-37.269367297216,184.833535422646,-178.484324942027,117.059317452293,44.2514098151397,4.2696665971826,-145.393085140379,5.18982677620811,160.440075698766,0.138663644806272,-84.5436238824608,0.280435871796082,-178.727727695687,5.99407739896695,3.8879037723823,34.6520932779309,103.187106070481
125.309294518589,20.7413373835112,13.8690087152211,-32.8353671719999,14.0869659588089,-157.569215659091,12.9676297580161,83.9445068545799,322.516298466399,18.3777963894186,295.981733342112,-100.823974407047,313.808338785844,142.959313344642,13.8690087152199,-32.8353671719948,13.4270207689337,-128.222760186488,0.492748120571275,-9.50207108775389,0.448568948935106,-101.602028263182,6.02609286245192,12.487511203145,-3.38891298915902,157.982689156704
106.677639999288,17.6574046721949,9.61161395198515,59.2165773142795,10.1094333946561,-46.9188113812158,11.8564855029023,-175.774451790022,234.219375164669,128.718556507639,280.574127163254,1.12561834183618,231.08638745358,-125.446507409133,9.61161395198498,59.2165773142709,11.4480079973297,-19.167054514738,0.324915842694261,91.1297588793511,0.425355608538425,0.72326564711571,5.99847039570174,9.83515909031209,11.9526344440384,134.237655414836
24.1680643355701,4.00032558012769,1.45959226656552,7.69442799370875,0.452453644734563,-41.0012504113621,1.7907892334021,176.753384607536,22.8825717315065,172.187704305264,28.2841289620041,3.22086028136899,7.28712800513159,-139.84118639009,1.45959226656664,7.69442799364301,1.25071595144672,-10.593770899412,0.0164355694096557,154.778318572403,0.0427061291338803,2.86064179574621,6.00138613903512,0.683363795440554,11.8056199489033,46.2047606613989
